
T10AC 000:001 SEGGER J-Link V4.90 Log File (0000ms, 0001ms total)
T10AC 000:001 DLL Compiled: Jul 28 2014 10:35:20 (0000ms, 0001ms total)
T10AC 000:001 Logging started @ 2023-11-05 22:10 (0000ms, 0001ms total)
T10AC 000:001 JLINK_SetWarnOutHandler(...) (0000ms, 0001ms total)
T10AC 000:001 JLINK_OpenEx(...)
Firmware: J-Link V9 compiled May  7 2021 16:26:12
Hardware: V9.70
S/N: 59700618
Feature(s): RDI, FlashBP, FlashDL, JFlash, GDB  returns O.K. (0258ms, 0259ms total)
T10AC 000:259 JLINK_GetEmuCaps()  returns 0xB9FF7BBF (0000ms, 0259ms total)
T10AC 000:259 JLINK_TIF_GetAvailable(...) (0000ms, 0259ms total)
T10AC 000:259 JLINK_SetErrorOutHandler(...) (0000ms, 0259ms total)
T10AC 000:259 JLINK_ExecCommand("ProjectFile = "C:\Users\HWX\Documents\GitHub\2023_HWX\Test_Project\motor_test\rp_motor_test\MDK-ARM\JLinkSettings.ini"", ...)Device "STM32F407VE" selected (512 KB flash, 128 KB RAM).  returns 0x00 (0001ms, 0260ms total)
T10AC 000:260 JLINK_ExecCommand("Device = STM32F407ZETx", ...)Device "STM32F407VE" selected (512 KB flash, 128 KB RAM).  returns 0x00 (0000ms, 0260ms total)
T10AC 000:260 JLINK_ExecCommand("DisableConnectionTimeout", ...)  returns 0x01 (0000ms, 0260ms total)
T10AC 000:260 JLINK_GetHardwareVersion()  returns 0x17AE8 (0000ms, 0260ms total)
T10AC 000:260 JLINK_GetDLLVersion()  returns 49000 (0000ms, 0260ms total)
T10AC 000:260 JLINK_GetFirmwareString(...) (0000ms, 0260ms total)
T10AC 000:260 JLINK_GetDLLVersion()  returns 49000 (0000ms, 0260ms total)
T10AC 000:260 JLINK_GetCompileDateTime() (0000ms, 0260ms total)
T10AC 000:260 JLINK_GetFirmwareString(...) (0000ms, 0260ms total)
T10AC 000:260 JLINK_GetHardwareVersion()  returns 0x17AE8 (0000ms, 0260ms total)
T10AC 000:260 JLINK_TIF_Select(JLINKARM_TIF_SWD)  returns 0x00 (0001ms, 0261ms total)
T10AC 000:261 JLINK_SetSpeed(5000) (0000ms, 0261ms total)
T10AC 000:261 JLINK_GetId() >0x108 TIF>Found SWD-DP with ID 0x2BA01477 >0x0D TIF> >0x28 TIF> >0x0D TIF> >0x28 TIF> >0x0D TIF> >0x21 TIF> >0x0D TIF> >0x28 TIF> >0x0D TIF> >0x28 TIF> >0x0D TIF> >0x28 TIF> >0x0D TIF> >0x21 TIF> >0x0D TIF> >0x21 TIF> >0x0D TIF> >0x28 TIF> >0x0D TIF> >0x21 TIF> >0x0D TIF> >0x21 TIF> >0x0D TIF> >0x28 TIF> >0x0D TIF> >0x21 TIF> >0x0D TIF> >0x21 TIF> >0x108 TIF>Found SWD-DP with ID 0x2BA01477 >0x0D TIF> >0x21 TIF> >0x0D TIF> >0x28 TIF> >0x0D TIF> >0x28 TIF> >0x0D TIF> >0x21 TIF>
 >0x0D TIF> >0x28 TIF> >0x0D TIF> >0x21 TIF> >0x0D TIF> >0x21 TIF> >0x0D TIF> >0x21 TIF> >0x0D TIF> >0x21 TIF> >0x0D TIF> >0x28 TIF> >0x0D TIF> >0x28 TIF> >0x0D TIF> >0x21 TIF> >0x0D TIF> >0x28 TIF> >0x0D TIF> >0x28 TIF> >0x0D TIF> >0x28 TIF> >0x0D TIF> >0x21 TIF> >0x0D TIF> >0x21 TIF> >0x0D TIF> >0x28 TIF> >0x0D TIF> >0x21 TIF> >0x0D TIF> >0x21 TIF>Found Cortex-M4 r0p1, Little endian. -- CPU_WriteMem(4 bytes @ 0xE0002000) -- CPU_ReadMem(4 bytes @ 0xE000EDF0) -- CPU_ReadMem(4 bytes @ 0xE0002000)
FPUnit: 6 code (BP) slots and 2 literal slots -- CPU_ReadMem(4 bytes @ 0xE000EDFC) -- CPU_ReadMem(4 bytes @ 0xE0001000) -- CPU_WriteMem(4 bytes @ 0xE0001000) -- CPU_ReadMem(4 bytes @ 0xE00FF010)TPIU fitted. -- CPU_ReadMem(4 bytes @ 0xE00FF014)ETM fitted. -- CPU_ReadMem(4 bytes @ 0xE00FF018) >0x0D TIF> >0x21 TIF>  returns 0x2BA01477 (0012ms, 0273ms total)
T10AC 000:273 JLINK_GetDLLVersion()  returns 49000 (0000ms, 0273ms total)
T10AC 000:273 JLINK_CORE_GetFound()  returns 0xE0000FF (0000ms, 0273ms total)
T10AC 000:273 JLINK_GetDebugInfo(0x100) -- Value=0xE00FF003  returns 0x00 (0000ms, 0273ms total)
T10AC 000:273 JLINK_GetDebugInfo(0x101)  returns 0xFFFFFFFF (0000ms, 0273ms total)
T10AC 000:273 JLINK_ReadMemEx(0xE0041FF0, 0x0010 Bytes, ..., AccessWidth = 33554436) -- CPU is running -- CPU_ReadMem(16 bytes @ 0xE0041FF0) - Data: 0D 00 00 00 90 00 00 00 05 00 00 00 B1 00 00 00  returns 0x10 (0001ms, 0274ms total)
T10AC 000:274 JLINK_GetDebugInfo(0x102)  returns 0xFFFFFFFF (0000ms, 0274ms total)
T10AC 000:274 JLINK_GetDebugInfo(0x103)  returns 0xFFFFFFFF (0000ms, 0274ms total)
T10AC 000:274 JLINK_ReadMemEx(0xE0040FF0, 0x0010 Bytes, ..., AccessWidth = 33554436) -- CPU is running -- CPU_ReadMem(16 bytes @ 0xE0040FF0) - Data: 0D 00 00 00 90 00 00 00 05 00 00 00 B1 00 00 00  returns 0x10 (0000ms, 0274ms total)
T10AC 000:274 JLINK_GetDebugInfo(0x104)  returns 0xFFFFFFFF (0000ms, 0274ms total)
T10AC 000:274 JLINK_GetDebugInfo(0x105)  returns 0xFFFFFFFF (0000ms, 0274ms total)
T10AC 000:274 JLINK_GetDebugInfo(0x106)  returns 0xFFFFFFFF (0000ms, 0274ms total)
T10AC 000:274 JLINK_GetDebugInfo(0x107)  returns 0xFFFFFFFF (0000ms, 0274ms total)
T10AC 000:274 JLINK_GetDebugInfo(0x10C)  returns 0xFFFFFFFF (0000ms, 0274ms total)
T10AC 000:274 JLINK_ReadMemU32(0xE000EF40, 0x0001 Items, ...) -- CPU is running -- CPU_ReadMem(4 bytes @ 0xE000EF40) - Data: 21 00 11 10  returns 0x01 (0000ms, 0274ms total)
T10AC 000:274 JLINK_ReadMemU32(0xE000EF44, 0x0001 Items, ...) -- CPU is running -- CPU_ReadMem(4 bytes @ 0xE000EF44) - Data: 11 00 00 11  returns 0x01 (0001ms, 0275ms total)
T10AC 000:275 JLINK_ReadMemU32(0xE000ED00, 0x0001 Items, ...) -- CPU is running -- CPU_ReadMem(4 bytes @ 0xE000ED00) - Data: 41 C2 0F 41  returns 0x01 (0000ms, 0275ms total)
T10AC 000:275 JLINK_GetDebugInfo(0x10F)  returns 0xFFFFFFFF (0000ms, 0275ms total)
T10AC 000:275 JLINK_SetResetType(JLINKARM_RESET_TYPE_NORMAL)  returns JLINKARM_RESET_TYPE_NORMAL (0000ms, 0275ms total)
T10AC 000:275 JLINK_Reset() -- CPU is running -- CPU_WriteMem(4 bytes @ 0xE000EDF0) -- CPU is running -- CPU_WriteMem(4 bytes @ 0xE000EDFC) >0x35 TIF> -- CPU is running -- CPU_WriteMem(4 bytes @ 0xE000ED0C) -- CPU is running -- CPU_ReadMem(4 bytes @ 0xE000EDF0) -- CPU is running -- CPU_ReadMem(4 bytes @ 0xE000EDF0) -- CPU is running -- CPU_WriteMem(4 bytes @ 0xE000EDF0) -- CPU is running -- CPU_WriteMem(4 bytes @ 0xE000EDFC) -- CPU is running -- CPU_ReadMem(4 bytes @ 0xE000EDF0)
 -- CPU_WriteMem(4 bytes @ 0xE0002000) -- CPU_ReadMem(4 bytes @ 0xE000EDFC) -- CPU_ReadMem(4 bytes @ 0xE0001000) (0014ms, 0289ms total)
T10AC 000:289 JLINK_ReadReg(R15 (PC))  returns 0x08000260 (0000ms, 0289ms total)
T10AC 000:289 JLINK_ReadReg(XPSR)  returns 0x01000000 (0000ms, 0289ms total)
T10AC 000:289 JLINK_Halt()  returns 0x00 (0000ms, 0289ms total)
T10AC 000:289 JLINK_ReadMemU32(0xE000EDF0, 0x0001 Items, ...) -- CPU_ReadMem(4 bytes @ 0xE000EDF0) - Data: 03 00 03 00  returns 0x01 (0000ms, 0289ms total)
T10AC 000:289 JLINK_WriteU32(0xE000EDF0, 0xA05F0003) -- CPU_WriteMem(4 bytes @ 0xE000EDF0)  returns 0x00 (0001ms, 0290ms total)
T10AC 000:290 JLINK_WriteU32(0xE000EDFC, 0x01000000) -- CPU_WriteMem(4 bytes @ 0xE000EDFC)  returns 0x00 (0000ms, 0290ms total)
T10AC 000:290 JLINK_GetHWStatus(...)  returns 0x00 (0001ms, 0291ms total)
T10AC 000:291 JLINK_GetNumBPUnits(Type = 0xFFFFFF00)  returns 0x06 (0000ms, 0291ms total)
T10AC 000:291 JLINK_GetNumBPUnits(Type = 0xF0)  returns 0x2000 (0000ms, 0291ms total)
T10AC 000:291 JLINK_GetNumWPUnits()  returns 0x04 (0000ms, 0291ms total)
T10AC 000:291 JLINK_GetSpeed()  returns 0xFA0 (0000ms, 0291ms total)
T10AC 000:291 JLINK_ReadMemU32(0xE000E004, 0x0001 Items, ...) -- CPU_ReadMem(4 bytes @ 0xE000E004) - Data: 02 00 00 00  returns 0x01 (0000ms, 0291ms total)
T10AC 000:291 JLINK_ReadMemU32(0xE000E004, 0x0001 Items, ...) -- CPU_ReadMem(4 bytes @ 0xE000E004) - Data: 02 00 00 00  returns 0x01 (0000ms, 0291ms total)
T10AC 000:291 JLINK_WriteMemEx(0xE0001000, 0x001C Bytes, ..., AccessWidth = 33554436) - Data: 01 00 00 00 00 00 00 00 00 00 00 00 00 00 00 00 ... -- CPU_WriteMem(28 bytes @ 0xE0001000)  returns 0x1C (0000ms, 0291ms total)
T10AC 000:291 JLINK_ReadReg(R15 (PC))  returns 0x08000260 (0000ms, 0291ms total)
T10AC 000:291 JLINK_ReadReg(XPSR)  returns 0x01000000 (0000ms, 0291ms total)
T10AC 000:301 JLINK_ReadMemEx(0xE0001004, 0x0004 Bytes, ..., AccessWidth = 33554432)Mis-aligned memory read: Address: 0xE0001004, NumBytes: 4, Alignment: 2 (Halfword-aligned)
  ***** Mis-aligned memory read: Address: 0xE0001004, NumBytes: 4, Alignment: 2 (Halfword-aligned) -- CPU_ReadMem(4 bytes @ 0xE0001004) - Data: 00 00 00 00  returns 0x04 (0000ms, 0291ms total)
T10AC 000:709 JLINK_SetResetType(JLINKARM_RESET_TYPE_NORMAL)  returns JLINKARM_RESET_TYPE_NORMAL (0000ms, 0291ms total)
T10AC 000:709 JLINK_Reset() -- CPU_WriteMem(4 bytes @ 0xE000EDF0) -- CPU_WriteMem(4 bytes @ 0xE000EDFC) >0x35 TIF> -- CPU_WriteMem(4 bytes @ 0xE000ED0C) -- CPU_ReadMem(4 bytes @ 0xE000EDF0) -- CPU_ReadMem(4 bytes @ 0xE000EDF0) -- CPU_WriteMem(4 bytes @ 0xE000EDF0) -- CPU_WriteMem(4 bytes @ 0xE000EDFC) -- CPU is running -- CPU_ReadMem(4 bytes @ 0xE000EDF0) -- CPU_WriteMem(4 bytes @ 0xE0002000) -- CPU_ReadMem(4 bytes @ 0xE000EDFC) -- CPU_ReadMem(4 bytes @ 0xE0001000) (0014ms, 0305ms total)
T10AC 000:723 JLINK_ReadReg(R15 (PC))  returns 0x08000260 (0000ms, 0305ms total)
T10AC 000:723 JLINK_ReadReg(XPSR)  returns 0x01000000 (0000ms, 0305ms total)
T10AC 000:724 JLINK_ReadMemEx(0x08000188, 0x003C Bytes, ..., AccessWidth = 33554432)Mis-aligned memory read: Address: 0x08000188, NumBytes: 60, Alignment: 2 (Halfword-aligned)
  ***** Mis-aligned memory read: Address: 0x08000188, NumBytes: 60, Alignment: 2 (Halfword-aligned) -- CPU_ReadMem(128 bytes @ 0x08000180) -- Updating C cache (128 bytes @ 0x08000180) -- Read from C cache (60 bytes @ 0x08000188) - Data: DF F8 10 D0 00 F0 64 FB 00 48 00 47 B9 78 00 08 ...  returns 0x3C (0001ms, 0306ms total)
T10AC 000:725 JLINK_ReadMemEx(0x080001C4, 0x003C Bytes, ..., AccessWidth = 33554432)Mis-aligned memory read: Address: 0x080001C4, NumBytes: 60, Alignment: 2 (Halfword-aligned)
  ***** Mis-aligned memory read: Address: 0x080001C4, NumBytes: 60, Alignment: 2 (Halfword-aligned) -- Read from C cache (60 bytes @ 0x080001C4) - Data: 00 68 80 F3 08 88 4F F0 00 00 80 F3 14 88 62 B6 ...  returns 0x3C (0000ms, 0306ms total)
T10AC 000:725 JLINK_ReadMemEx(0x08000200, 0x003C Bytes, ..., AccessWidth = 33554432)Mis-aligned memory read: Address: 0x08000200, NumBytes: 60, Alignment: 2 (Halfword-aligned)
  ***** Mis-aligned memory read: Address: 0x08000200, NumBytes: 60, Alignment: 2 (Halfword-aligned) -- CPU_ReadMem(64 bytes @ 0x08000200) -- Updating C cache (64 bytes @ 0x08000200) -- Read from C cache (60 bytes @ 0x08000200) - Data: BF F3 6F 8F 13 4B 1A 68 1E F0 10 0F 08 BF 20 ED ...  returns 0x3C (0001ms, 0307ms total)
T10AC 000:726 JLINK_ReadMemEx(0x0800023C, 0x003C Bytes, ..., AccessWidth = 33554432)Mis-aligned memory read: Address: 0x0800023C, NumBytes: 60, Alignment: 2 (Halfword-aligned)
  ***** Mis-aligned memory read: Address: 0x0800023C, NumBytes: 60, Alignment: 2 (Halfword-aligned) -- CPU_ReadMem(64 bytes @ 0x08000240) -- Updating C cache (64 bytes @ 0x08000240) -- Read from C cache (60 bytes @ 0x0800023C) - Data: B0 E8 F0 4F 1E F0 10 0F 08 BF B0 EC 10 8A 80 F3 ...  returns 0x3C (0001ms, 0308ms total)
T10AC 002:811 JLINK_ReadReg(R0)  returns 0x00000000 (0001ms, 0309ms total)
T10AC 002:812 JLINK_ReadReg(R1)  returns 0x00000000 (0000ms, 0309ms total)
T10AC 002:812 JLINK_ReadReg(R2)  returns 0x00000000 (0000ms, 0309ms total)
T10AC 002:812 JLINK_ReadReg(R3)  returns 0x00000000 (0000ms, 0309ms total)
T10AC 002:812 JLINK_ReadReg(R4)  returns 0x00000000 (0000ms, 0309ms total)
T10AC 002:812 JLINK_ReadReg(R5)  returns 0x00000000 (0000ms, 0309ms total)
T10AC 002:812 JLINK_ReadReg(R6)  returns 0x00000000 (0000ms, 0309ms total)
T10AC 002:812 JLINK_ReadReg(R7)  returns 0x00000000 (0000ms, 0309ms total)
T10AC 002:812 JLINK_ReadReg(R8)  returns 0x00000000 (0000ms, 0309ms total)
T10AC 002:812 JLINK_ReadReg(R9)  returns 0x00000000 (0000ms, 0309ms total)
T10AC 002:812 JLINK_ReadReg(R10)  returns 0x00000000 (0000ms, 0309ms total)
T10AC 002:812 JLINK_ReadReg(R11)  returns 0x00000000 (0000ms, 0309ms total)
T10AC 002:812 JLINK_ReadReg(R12)  returns 0x00000000 (0000ms, 0309ms total)
T10AC 002:812 JLINK_ReadReg(R13 (SP))  returns 0x20001A30 (0000ms, 0309ms total)
T10AC 002:812 JLINK_ReadReg(R14)  returns 0xFFFFFFFF (0000ms, 0309ms total)
T10AC 002:812 JLINK_ReadReg(R15 (PC))  returns 0x08000260 (0000ms, 0309ms total)
T10AC 002:812 JLINK_ReadReg(XPSR)  returns 0x01000000 (0000ms, 0309ms total)
T10AC 002:812 JLINK_ReadReg(MSP)  returns 0x20001A30 (0000ms, 0309ms total)
T10AC 002:812 JLINK_ReadReg(PSP)  returns 0x00000000 (0000ms, 0309ms total)
T10AC 002:812 JLINK_ReadReg(CFBP)  returns 0x00000000 (0000ms, 0309ms total)
T10AC 002:812 JLINK_ReadReg(FPSCR)  returns 0x00000000 (0002ms, 0311ms total)
T10AC 002:814 JLINK_ReadReg(FPS0)  returns 0x00000000 (0000ms, 0311ms total)
T10AC 002:814 JLINK_ReadReg(FPS1)  returns 0x00000000 (0000ms, 0311ms total)
T10AC 002:814 JLINK_ReadReg(FPS2)  returns 0x00000000 (0000ms, 0311ms total)
T10AC 002:814 JLINK_ReadReg(FPS3)  returns 0x00000000 (0000ms, 0311ms total)
T10AC 002:814 JLINK_ReadReg(FPS4)  returns 0x00000000 (0000ms, 0311ms total)
T10AC 002:814 JLINK_ReadReg(FPS5)  returns 0x00000000 (0000ms, 0311ms total)
T10AC 002:814 JLINK_ReadReg(FPS6)  returns 0x00000000 (0000ms, 0311ms total)
T10AC 002:814 JLINK_ReadReg(FPS7)  returns 0x00000000 (0000ms, 0311ms total)
T10AC 002:814 JLINK_ReadReg(FPS8)  returns 0x00000000 (0000ms, 0311ms total)
T10AC 002:814 JLINK_ReadReg(FPS9)  returns 0x00000000 (0000ms, 0311ms total)
T10AC 002:814 JLINK_ReadReg(FPS10)  returns 0x00000000 (0000ms, 0311ms total)
T10AC 002:814 JLINK_ReadReg(FPS11)  returns 0x00000000 (0000ms, 0311ms total)
T10AC 002:814 JLINK_ReadReg(FPS12)  returns 0x00000000 (0001ms, 0312ms total)
T10AC 002:815 JLINK_ReadReg(FPS13)  returns 0x00000000 (0000ms, 0312ms total)
T10AC 002:815 JLINK_ReadReg(FPS14)  returns 0x00000000 (0000ms, 0312ms total)
T10AC 002:815 JLINK_ReadReg(FPS15)  returns 0x00000000 (0000ms, 0312ms total)
T10AC 002:815 JLINK_ReadReg(FPS16)  returns 0x00000000 (0000ms, 0312ms total)
T10AC 002:815 JLINK_ReadReg(FPS17)  returns 0x00000000 (0000ms, 0312ms total)
T10AC 002:815 JLINK_ReadReg(FPS18)  returns 0x00000000 (0000ms, 0312ms total)
T10AC 002:815 JLINK_ReadReg(FPS19)  returns 0x00000000 (0000ms, 0312ms total)
T10AC 002:815 JLINK_ReadReg(FPS20)  returns 0x00000000 (0000ms, 0312ms total)
T10AC 002:815 JLINK_ReadReg(FPS21)  returns 0x00000000 (0000ms, 0312ms total)
T10AC 002:815 JLINK_ReadReg(FPS22)  returns 0x00000000 (0000ms, 0312ms total)
T10AC 002:815 JLINK_ReadReg(FPS23)  returns 0x00000000 (0000ms, 0312ms total)
T10AC 002:815 JLINK_ReadReg(FPS24)  returns 0x00000000 (0000ms, 0312ms total)
T10AC 002:815 JLINK_ReadReg(FPS25)  returns 0x00000000 (0000ms, 0312ms total)
T10AC 002:815 JLINK_ReadReg(FPS26)  returns 0x00000000 (0000ms, 0312ms total)
T10AC 002:815 JLINK_ReadReg(FPS27)  returns 0x00000000 (0000ms, 0312ms total)
T10AC 002:815 JLINK_ReadReg(FPS28)  returns 0x00000000 (0000ms, 0312ms total)
T10AC 002:815 JLINK_ReadReg(FPS29)  returns 0x00000000 (0000ms, 0312ms total)
T10AC 002:815 JLINK_ReadReg(FPS30)  returns 0x00000000 (0000ms, 0312ms total)
T10AC 002:815 JLINK_ReadReg(FPS31)  returns 0x00000000 (0000ms, 0312ms total)
T10AC 002:928 JLINK_ReadMemEx(0x20000310, 0x0002 Bytes, ..., AccessWidth = 33554432)Mis-aligned memory read: Address: 0x20000310, NumBytes: 2, Alignment: 2 (Halfword-aligned)
  ***** Mis-aligned memory read: Address: 0x20000310, NumBytes: 2, Alignment: 2 (Halfword-aligned) -- CPU_ReadMem(64 bytes @ 0x20000300) -- Updating C cache (64 bytes @ 0x20000300) -- Read from C cache (2 bytes @ 0x20000310) - Data: 48 F4  returns 0x02 (0001ms, 0313ms total)
T10AC 002:946 JLINK_ReadMemEx(0x2000039C, 0x0001 Bytes, ..., AccessWidth = 33554432)Mis-aligned memory read: Address: 0x2000039C, NumBytes: 1, Alignment: 2 (Halfword-aligned)
  ***** Mis-aligned memory read: Address: 0x2000039C, NumBytes: 1, Alignment: 2 (Halfword-aligned) -- CPU_ReadMem(64 bytes @ 0x20000380) -- Updating C cache (64 bytes @ 0x20000380) -- Read from C cache (1 bytes @ 0x2000039C) - Data: 00  returns 0x01 (0001ms, 0314ms total)
T71DC 003:069 JLINK_ReadMemEx(0x08000260, 0x0002 Bytes, ..., AccessWidth = 33554432)Mis-aligned memory read: Address: 0x08000260, NumBytes: 2, Alignment: 2 (Halfword-aligned)
  ***** Mis-aligned memory read: Address: 0x08000260, NumBytes: 2, Alignment: 2 (Halfword-aligned) -- Read from C cache (2 bytes @ 0x08000260) - Data: 06 48  returns 0x02 (0000ms, 0314ms total)
T71DC 003:069 JLINK_SetBPEx(Addr = 0x080078B8, Type = 0xFFFFFFF2)  returns 0x00000001 (0000ms, 0314ms total)
T71DC 003:069 JLINK_SetBPEx(Addr = 0x08004798, Type = 0xFFFFFFF2)  returns 0x00000002 (0000ms, 0314ms total)
T71DC 003:069 JLINK_SetBPEx(Addr = 0x0800109C, Type = 0xFFFFFFF2)  returns 0x00000003 (0000ms, 0314ms total)
T71DC 003:069 JLINK_SetBPEx(Addr = 0x08001048, Type = 0xFFFFFFF2)  returns 0x00000004 (0000ms, 0314ms total)
T71DC 003:069 JLINK_Go() -- CPU_WriteMem(4 bytes @ 0xE0002000) -- CPU_WriteMem(4 bytes @ 0xE0002008) -- CPU_WriteMem(4 bytes @ 0xE0002000) -- CPU_WriteMem(4 bytes @ 0xE000200C) -- CPU_WriteMem(4 bytes @ 0xE0002000) -- CPU_WriteMem(4 bytes @ 0xE0002010) -- CPU_WriteMem(4 bytes @ 0xE0002000) -- CPU_WriteMem(4 bytes @ 0xE0002014) -- CPU_WriteMem(4 bytes @ 0xE0002018) -- CPU_WriteMem(4 bytes @ 0xE000201C) -- CPU_WriteMem(4 bytes @ 0xE0001004) (0003ms, 0317ms total)
T71DC 003:172 JLINK_IsHalted()  returns TRUE (0001ms, 0318ms total)
T71DC 003:173 JLINK_Halt()  returns 0x00 (0000ms, 0317ms total)
T71DC 003:173 JLINK_IsHalted()  returns TRUE (0000ms, 0317ms total)
T71DC 003:173 JLINK_IsHalted()  returns TRUE (0000ms, 0317ms total)
T71DC 003:174 JLINK_IsHalted()  returns TRUE (0000ms, 0317ms total)
T71DC 003:174 JLINK_ReadReg(R15 (PC))  returns 0x080078B8 (0000ms, 0317ms total)
T71DC 003:174 JLINK_ReadReg(XPSR)  returns 0x61000000 (0000ms, 0317ms total)
T71DC 003:174 JLINK_ClrBPEx(BPHandle = 0x00000001)  returns 0x00 (0000ms, 0317ms total)
T71DC 003:174 JLINK_ClrBPEx(BPHandle = 0x00000002)  returns 0x00 (0000ms, 0317ms total)
T71DC 003:174 JLINK_ClrBPEx(BPHandle = 0x00000003)  returns 0x00 (0000ms, 0317ms total)
T71DC 003:174 JLINK_ClrBPEx(BPHandle = 0x00000004)  returns 0x00 (0000ms, 0317ms total)
T71DC 003:174 JLINK_ReadMemU32(0xE000ED30, 0x0001 Items, ...) -- CPU_ReadMem(4 bytes @ 0xE000ED30) - Data: 02 00 00 00  returns 0x01 (0001ms, 0318ms total)
T71DC 003:175 JLINK_ReadMemU32(0xE0001028, 0x0001 Items, ...) -- CPU_ReadMem(4 bytes @ 0xE0001028) - Data: 00 00 00 00  returns 0x01 (0000ms, 0318ms total)
T71DC 003:175 JLINK_ReadMemU32(0xE0001038, 0x0001 Items, ...) -- CPU_ReadMem(4 bytes @ 0xE0001038) - Data: 00 02 00 00  returns 0x01 (0000ms, 0318ms total)
T71DC 003:175 JLINK_ReadMemU32(0xE0001048, 0x0001 Items, ...) -- CPU_ReadMem(4 bytes @ 0xE0001048) - Data: 00 00 00 00  returns 0x01 (0001ms, 0319ms total)
T71DC 003:176 JLINK_ReadMemU32(0xE0001058, 0x0001 Items, ...) -- CPU_ReadMem(4 bytes @ 0xE0001058) - Data: 00 00 00 00  returns 0x01 (0000ms, 0319ms total)
T71DC 003:176 JLINK_ReadReg(R0)  returns 0x080078B9 (0000ms, 0319ms total)
T71DC 003:176 JLINK_ReadReg(R1)  returns 0x20001A30 (0000ms, 0319ms total)
T71DC 003:176 JLINK_ReadReg(R2)  returns 0x00000000 (0000ms, 0319ms total)
T71DC 003:176 JLINK_ReadReg(R3)  returns 0x080052A1 (0000ms, 0319ms total)
T71DC 003:176 JLINK_ReadReg(R4)  returns 0x0800CAF8 (0000ms, 0319ms total)
T71DC 003:176 JLINK_ReadReg(R5)  returns 0x0800CAF8 (0000ms, 0319ms total)
T71DC 003:176 JLINK_ReadReg(R6)  returns 0x00000000 (0000ms, 0319ms total)
T71DC 003:176 JLINK_ReadReg(R7)  returns 0x00000000 (0000ms, 0319ms total)
T71DC 003:176 JLINK_ReadReg(R8)  returns 0x00000000 (0000ms, 0319ms total)
T71DC 003:176 JLINK_ReadReg(R9)  returns 0x00000000 (0000ms, 0319ms total)
T71DC 003:176 JLINK_ReadReg(R10)  returns 0x00000000 (0000ms, 0319ms total)
T71DC 003:176 JLINK_ReadReg(R11)  returns 0x00000000 (0000ms, 0319ms total)
T71DC 003:176 JLINK_ReadReg(R12)  returns 0x00000000 (0000ms, 0319ms total)
T71DC 003:176 JLINK_ReadReg(R13 (SP))  returns 0x20001A30 (0000ms, 0319ms total)
T71DC 003:176 JLINK_ReadReg(R14)  returns 0x08000875 (0000ms, 0319ms total)
T71DC 003:176 JLINK_ReadReg(R15 (PC))  returns 0x080078B8 (0000ms, 0319ms total)
T71DC 003:176 JLINK_ReadReg(XPSR)  returns 0x61000000 (0000ms, 0319ms total)
T71DC 003:176 JLINK_ReadReg(MSP)  returns 0x20001A30 (0000ms, 0319ms total)
T71DC 003:176 JLINK_ReadReg(PSP)  returns 0x00000000 (0000ms, 0319ms total)
T71DC 003:176 JLINK_ReadReg(CFBP)  returns 0x00000000 (0000ms, 0319ms total)
T71DC 003:176 JLINK_ReadReg(FPSCR)  returns 0x00000000 (0003ms, 0322ms total)
T71DC 003:179 JLINK_ReadReg(FPS0)  returns 0x00000000 (0000ms, 0322ms total)
T71DC 003:179 JLINK_ReadReg(FPS1)  returns 0x00000000 (0000ms, 0322ms total)
T71DC 003:179 JLINK_ReadReg(FPS2)  returns 0x00000000 (0000ms, 0322ms total)
T71DC 003:179 JLINK_ReadReg(FPS3)  returns 0x00000000 (0000ms, 0322ms total)
T71DC 003:179 JLINK_ReadReg(FPS4)  returns 0x00000000 (0000ms, 0322ms total)
T71DC 003:179 JLINK_ReadReg(FPS5)  returns 0x00000000 (0000ms, 0322ms total)
T71DC 003:179 JLINK_ReadReg(FPS6)  returns 0x00000000 (0000ms, 0322ms total)
T71DC 003:179 JLINK_ReadReg(FPS7)  returns 0x00000000 (0000ms, 0322ms total)
T71DC 003:179 JLINK_ReadReg(FPS8)  returns 0x00000000 (0000ms, 0322ms total)
T71DC 003:179 JLINK_ReadReg(FPS9)  returns 0x00000000 (0000ms, 0322ms total)
T71DC 003:179 JLINK_ReadReg(FPS10)  returns 0x00000000 (0000ms, 0322ms total)
T71DC 003:179 JLINK_ReadReg(FPS11)  returns 0x00000000 (0000ms, 0322ms total)
T71DC 003:179 JLINK_ReadReg(FPS12)  returns 0x00000000 (0000ms, 0322ms total)
T71DC 003:179 JLINK_ReadReg(FPS13)  returns 0x00000000 (0000ms, 0322ms total)
T71DC 003:179 JLINK_ReadReg(FPS14)  returns 0x00000000 (0000ms, 0322ms total)
T71DC 003:179 JLINK_ReadReg(FPS15)  returns 0x00000000 (0000ms, 0322ms total)
T71DC 003:179 JLINK_ReadReg(FPS16)  returns 0x00000000 (0000ms, 0322ms total)
T71DC 003:179 JLINK_ReadReg(FPS17)  returns 0x00000000 (0000ms, 0322ms total)
T71DC 003:179 JLINK_ReadReg(FPS18)  returns 0x00000000 (0000ms, 0322ms total)
T71DC 003:179 JLINK_ReadReg(FPS19)  returns 0x00000000 (0000ms, 0322ms total)
T71DC 003:179 JLINK_ReadReg(FPS20)  returns 0x00000000 (0000ms, 0322ms total)
T71DC 003:179 JLINK_ReadReg(FPS21)  returns 0x00000000 (0000ms, 0322ms total)
T71DC 003:179 JLINK_ReadReg(FPS22)  returns 0x00000000 (0000ms, 0322ms total)
T71DC 003:179 JLINK_ReadReg(FPS23)  returns 0x00000000 (0000ms, 0322ms total)
T71DC 003:179 JLINK_ReadReg(FPS24)  returns 0x00000000 (0000ms, 0322ms total)
T71DC 003:179 JLINK_ReadReg(FPS25)  returns 0x00000000 (0000ms, 0322ms total)
T71DC 003:179 JLINK_ReadReg(FPS26)  returns 0x00000000 (0000ms, 0322ms total)
T71DC 003:179 JLINK_ReadReg(FPS27)  returns 0x00000000 (0000ms, 0322ms total)
T71DC 003:179 JLINK_ReadReg(FPS28)  returns 0x00000000 (0000ms, 0322ms total)
T71DC 003:179 JLINK_ReadReg(FPS29)  returns 0x00000000 (0000ms, 0322ms total)
T71DC 003:179 JLINK_ReadReg(FPS30)  returns 0x00000000 (0000ms, 0322ms total)
T71DC 003:179 JLINK_ReadReg(FPS31)  returns 0x00000000 (0000ms, 0322ms total)
T71DC 003:179 JLINK_ReadMemEx(0x2000035C, 0x0004 Bytes, ..., AccessWidth = 33554432)Mis-aligned memory read: Address: 0x2000035C, NumBytes: 4, Alignment: 2 (Halfword-aligned)
  ***** Mis-aligned memory read: Address: 0x2000035C, NumBytes: 4, Alignment: 2 (Halfword-aligned) -- CPU_ReadMem(64 bytes @ 0x20000340) -- Updating C cache (64 bytes @ 0x20000340) -- Read from C cache (4 bytes @ 0x2000035C) - Data: 00 00 00 00  returns 0x04 (0002ms, 0324ms total)
T10AC 003:182 JLINK_ReadMemEx(0x20000310, 0x0002 Bytes, ..., AccessWidth = 33554432)Mis-aligned memory read: Address: 0x20000310, NumBytes: 2, Alignment: 2 (Halfword-aligned)
  ***** Mis-aligned memory read: Address: 0x20000310, NumBytes: 2, Alignment: 2 (Halfword-aligned) -- CPU_ReadMem(64 bytes @ 0x20000300) -- Updating C cache (64 bytes @ 0x20000300) -- Read from C cache (2 bytes @ 0x20000310) - Data: 48 F4  returns 0x02 (0001ms, 0325ms total)
T10AC 003:183 JLINK_ReadMemEx(0x2000039C, 0x0001 Bytes, ..., AccessWidth = 33554432)Mis-aligned memory read: Address: 0x2000039C, NumBytes: 1, Alignment: 2 (Halfword-aligned)
  ***** Mis-aligned memory read: Address: 0x2000039C, NumBytes: 1, Alignment: 2 (Halfword-aligned) -- CPU_ReadMem(64 bytes @ 0x20000380) -- Updating C cache (64 bytes @ 0x20000380) -- Read from C cache (1 bytes @ 0x2000039C) - Data: 00  returns 0x01 (0000ms, 0325ms total)
T10AC 003:185 JLINK_ReadMemEx(0x080078B8, 0x003C Bytes, ..., AccessWidth = 33554432)Mis-aligned memory read: Address: 0x080078B8, NumBytes: 60, Alignment: 2 (Halfword-aligned)
  ***** Mis-aligned memory read: Address: 0x080078B8, NumBytes: 60, Alignment: 2 (Halfword-aligned) -- CPU_ReadMem(128 bytes @ 0x08007880) -- Updating C cache (128 bytes @ 0x08007880) -- Read from C cache (60 bytes @ 0x080078B8) - Data: 42 4C 00 20 84 F8 24 00 02 20 84 F8 25 00 40 F2 ...  returns 0x3C (0001ms, 0326ms total)
T71DC 009:431 JLINK_ReadMemEx(0x080078B8, 0x0002 Bytes, ..., AccessWidth = 33554432)Mis-aligned memory read: Address: 0x080078B8, NumBytes: 2, Alignment: 2 (Halfword-aligned)
  ***** Mis-aligned memory read: Address: 0x080078B8, NumBytes: 2, Alignment: 2 (Halfword-aligned) -- Read from C cache (2 bytes @ 0x080078B8) - Data: 42 4C  returns 0x02 (0011ms, 0337ms total)
T71DC 009:442 JLINK_SetBPEx(Addr = 0x08004798, Type = 0xFFFFFFF2)  returns 0x00000005 (0000ms, 0337ms total)
T71DC 009:442 JLINK_SetBPEx(Addr = 0x0800109C, Type = 0xFFFFFFF2)  returns 0x00000006 (0000ms, 0337ms total)
T71DC 009:442 JLINK_SetBPEx(Addr = 0x08001048, Type = 0xFFFFFFF2)  returns 0x00000007 (0000ms, 0337ms total)
T71DC 009:442 JLINK_Go() -- CPU_WriteMem(4 bytes @ 0xE0002000) -- CPU_WriteMem(4 bytes @ 0xE0002000) -- CPU_WriteMem(4 bytes @ 0xE0002000) -- CPU_WriteMem(4 bytes @ 0xE0002008) -- CPU_WriteMem(4 bytes @ 0xE000200C) -- CPU_WriteMem(4 bytes @ 0xE0002010) -- CPU_WriteMem(4 bytes @ 0xE0002014) (0002ms, 0339ms total)
T71DC 009:545 JLINK_IsHalted()  returns TRUE (0001ms, 0340ms total)
T71DC 009:546 JLINK_Halt()  returns 0x00 (0000ms, 0339ms total)
T71DC 009:546 JLINK_IsHalted()  returns TRUE (0000ms, 0339ms total)
T71DC 009:546 JLINK_IsHalted()  returns TRUE (0000ms, 0339ms total)
T71DC 009:546 JLINK_IsHalted()  returns TRUE (0000ms, 0339ms total)
T71DC 009:546 JLINK_ReadReg(R15 (PC))  returns 0x08001048 (0000ms, 0339ms total)
T71DC 009:546 JLINK_ReadReg(XPSR)  returns 0x21000024 (0000ms, 0339ms total)
T71DC 009:546 JLINK_ClrBPEx(BPHandle = 0x00000005)  returns 0x00 (0001ms, 0340ms total)
T71DC 009:547 JLINK_ClrBPEx(BPHandle = 0x00000006)  returns 0x00 (0000ms, 0340ms total)
T71DC 009:547 JLINK_ClrBPEx(BPHandle = 0x00000007)  returns 0x00 (0000ms, 0340ms total)
T71DC 009:547 JLINK_ReadMemU32(0xE000ED30, 0x0001 Items, ...) -- CPU_ReadMem(4 bytes @ 0xE000ED30) - Data: 02 00 00 00  returns 0x01 (0000ms, 0340ms total)
T71DC 009:547 JLINK_ReadMemU32(0xE0001028, 0x0001 Items, ...) -- CPU_ReadMem(4 bytes @ 0xE0001028) - Data: 00 00 00 00  returns 0x01 (0001ms, 0341ms total)
T71DC 009:548 JLINK_ReadMemU32(0xE0001038, 0x0001 Items, ...) -- CPU_ReadMem(4 bytes @ 0xE0001038) - Data: 00 02 00 00  returns 0x01 (0000ms, 0341ms total)
T71DC 009:548 JLINK_ReadMemU32(0xE0001048, 0x0001 Items, ...) -- CPU_ReadMem(4 bytes @ 0xE0001048) - Data: 00 00 00 00  returns 0x01 (0000ms, 0341ms total)
T71DC 009:548 JLINK_ReadMemU32(0xE0001058, 0x0001 Items, ...) -- CPU_ReadMem(4 bytes @ 0xE0001058) - Data: 00 00 00 00  returns 0x01 (0000ms, 0341ms total)
T71DC 009:548 JLINK_ReadReg(R0)  returns 0x00000205 (0000ms, 0341ms total)
T71DC 009:548 JLINK_ReadReg(R1)  returns 0x200006BC (0000ms, 0341ms total)
T71DC 009:548 JLINK_ReadReg(R2)  returns 0x00000000 (0000ms, 0341ms total)
T71DC 009:548 JLINK_ReadReg(R3)  returns 0x200006BC (0000ms, 0341ms total)
T71DC 009:548 JLINK_ReadReg(R4)  returns 0x200006BC (0000ms, 0341ms total)
T71DC 009:548 JLINK_ReadReg(R5)  returns 0x20000CEC (0000ms, 0341ms total)
T71DC 009:548 JLINK_ReadReg(R6)  returns 0x00000002 (0000ms, 0341ms total)
T71DC 009:548 JLINK_ReadReg(R7)  returns 0x00000008 (0000ms, 0341ms total)
T71DC 009:548 JLINK_ReadReg(R8)  returns 0x00000000 (0000ms, 0341ms total)
T71DC 009:548 JLINK_ReadReg(R9)  returns 0x00000E08 (0000ms, 0341ms total)
T71DC 009:548 JLINK_ReadReg(R10)  returns 0x00000000 (0000ms, 0341ms total)
T71DC 009:548 JLINK_ReadReg(R11)  returns 0x00000001 (0000ms, 0341ms total)
T71DC 009:548 JLINK_ReadReg(R12)  returns 0x08000000 (0000ms, 0341ms total)
T71DC 009:548 JLINK_ReadReg(R13 (SP))  returns 0x20001988 (0000ms, 0341ms total)
T71DC 009:548 JLINK_ReadReg(R14)  returns 0x080010ED (0000ms, 0341ms total)
T71DC 009:548 JLINK_ReadReg(R15 (PC))  returns 0x08001048 (0000ms, 0341ms total)
T71DC 009:548 JLINK_ReadReg(XPSR)  returns 0x21000024 (0000ms, 0341ms total)
T71DC 009:548 JLINK_ReadReg(MSP)  returns 0x20001988 (0000ms, 0341ms total)
T71DC 009:548 JLINK_ReadReg(PSP)  returns 0x00000000 (0000ms, 0341ms total)
T71DC 009:548 JLINK_ReadReg(CFBP)  returns 0x00000000 (0000ms, 0341ms total)
T71DC 009:548 JLINK_ReadReg(FPSCR)  returns 0x20000000 (0003ms, 0344ms total)
T71DC 009:551 JLINK_ReadReg(FPS0)  returns 0xFFFFC568 (0000ms, 0344ms total)
T71DC 009:551 JLINK_ReadReg(FPS1)  returns 0xC69C4000 (0000ms, 0344ms total)
T71DC 009:551 JLINK_ReadReg(FPS2)  returns 0x00000000 (0000ms, 0344ms total)
T71DC 009:551 JLINK_ReadReg(FPS3)  returns 0x00000000 (0000ms, 0344ms total)
T71DC 009:551 JLINK_ReadReg(FPS4)  returns 0x457FF000 (0000ms, 0344ms total)
T71DC 009:551 JLINK_ReadReg(FPS5)  returns 0x00000000 (0000ms, 0344ms total)
T71DC 009:551 JLINK_ReadReg(FPS6)  returns 0x00000000 (0000ms, 0344ms total)
T71DC 009:551 JLINK_ReadReg(FPS7)  returns 0x00000000 (0000ms, 0344ms total)
T71DC 009:551 JLINK_ReadReg(FPS8)  returns 0x00000000 (0000ms, 0344ms total)
T71DC 009:551 JLINK_ReadReg(FPS9)  returns 0x00000000 (0000ms, 0344ms total)
T71DC 009:551 JLINK_ReadReg(FPS10)  returns 0x00000000 (0000ms, 0344ms total)
T71DC 009:551 JLINK_ReadReg(FPS11)  returns 0x00000000 (0000ms, 0344ms total)
T71DC 009:551 JLINK_ReadReg(FPS12)  returns 0x00000000 (0000ms, 0344ms total)
T71DC 009:551 JLINK_ReadReg(FPS13)  returns 0x00000000 (0000ms, 0344ms total)
T71DC 009:551 JLINK_ReadReg(FPS14)  returns 0x00000000 (0000ms, 0344ms total)
T71DC 009:551 JLINK_ReadReg(FPS15)  returns 0x00000000 (0000ms, 0344ms total)
T71DC 009:551 JLINK_ReadReg(FPS16)  returns 0x00000000 (0000ms, 0344ms total)
T71DC 009:551 JLINK_ReadReg(FPS17)  returns 0x00000000 (0000ms, 0344ms total)
T71DC 009:551 JLINK_ReadReg(FPS18)  returns 0x00000000 (0000ms, 0344ms total)
T71DC 009:551 JLINK_ReadReg(FPS19)  returns 0x00000000 (0000ms, 0344ms total)
T71DC 009:551 JLINK_ReadReg(FPS20)  returns 0x00000000 (0000ms, 0344ms total)
T71DC 009:551 JLINK_ReadReg(FPS21)  returns 0x00000000 (0000ms, 0344ms total)
T71DC 009:551 JLINK_ReadReg(FPS22)  returns 0x00000000 (0000ms, 0344ms total)
T71DC 009:551 JLINK_ReadReg(FPS23)  returns 0x00000000 (0000ms, 0344ms total)
T71DC 009:551 JLINK_ReadReg(FPS24)  returns 0x00000000 (0000ms, 0344ms total)
T71DC 009:551 JLINK_ReadReg(FPS25)  returns 0x00000000 (0000ms, 0344ms total)
T71DC 009:551 JLINK_ReadReg(FPS26)  returns 0x00000000 (0000ms, 0344ms total)
T71DC 009:551 JLINK_ReadReg(FPS27)  returns 0x00000000 (0000ms, 0344ms total)
T71DC 009:551 JLINK_ReadReg(FPS28)  returns 0x00000000 (0001ms, 0345ms total)
T71DC 009:552 JLINK_ReadReg(FPS29)  returns 0x00000000 (0000ms, 0345ms total)
T71DC 009:552 JLINK_ReadReg(FPS30)  returns 0x00000000 (0000ms, 0345ms total)
T71DC 009:552 JLINK_ReadReg(FPS31)  returns 0x00000000 (0000ms, 0345ms total)
T71DC 009:552 JLINK_ReadMemEx(0x2000035C, 0x0004 Bytes, ..., AccessWidth = 33554432)Mis-aligned memory read: Address: 0x2000035C, NumBytes: 4, Alignment: 2 (Halfword-aligned)
  ***** Mis-aligned memory read: Address: 0x2000035C, NumBytes: 4, Alignment: 2 (Halfword-aligned) -- CPU_ReadMem(64 bytes @ 0x20000340) -- Updating C cache (64 bytes @ 0x20000340) -- Read from C cache (4 bytes @ 0x2000035C) - Data: 00 00 00 00  returns 0x04 (0000ms, 0345ms total)
T10AC 009:559 JLINK_ReadMemEx(0x20000310, 0x0002 Bytes, ..., AccessWidth = 33554432)Mis-aligned memory read: Address: 0x20000310, NumBytes: 2, Alignment: 2 (Halfword-aligned)
  ***** Mis-aligned memory read: Address: 0x20000310, NumBytes: 2, Alignment: 2 (Halfword-aligned) -- CPU_ReadMem(64 bytes @ 0x20000300) -- Updating C cache (64 bytes @ 0x20000300) -- Read from C cache (2 bytes @ 0x20000310) - Data: 48 F4  returns 0x02 (0001ms, 0346ms total)
T10AC 009:560 JLINK_ReadMemEx(0x2000039C, 0x0001 Bytes, ..., AccessWidth = 33554432)Mis-aligned memory read: Address: 0x2000039C, NumBytes: 1, Alignment: 2 (Halfword-aligned)
  ***** Mis-aligned memory read: Address: 0x2000039C, NumBytes: 1, Alignment: 2 (Halfword-aligned) -- CPU_ReadMem(64 bytes @ 0x20000380) -- Updating C cache (64 bytes @ 0x20000380) -- Read from C cache (1 bytes @ 0x2000039C) - Data: 00  returns 0x01 (0000ms, 0346ms total)
T10AC 009:563 JLINK_ReadMemEx(0x08000F48, 0x003C Bytes, ..., AccessWidth = 33554432)Mis-aligned memory read: Address: 0x08000F48, NumBytes: 60, Alignment: 2 (Halfword-aligned)
  ***** Mis-aligned memory read: Address: 0x08000F48, NumBytes: 60, Alignment: 2 (Halfword-aligned) -- CPU_ReadMem(128 bytes @ 0x08000F40) -- Updating C cache (128 bytes @ 0x08000F40) -- Read from C cache (60 bytes @ 0x08000F48) - Data: F0 87 2D E9 FE 4F 15 46 DD E9 0C 9A 0E 46 07 46 ...  returns 0x3C (0001ms, 0347ms total)
T10AC 009:564 JLINK_ReadMemEx(0x08000F84, 0x003C Bytes, ..., AccessWidth = 33554432)Mis-aligned memory read: Address: 0x08000F84, NumBytes: 60, Alignment: 2 (Halfword-aligned)
  ***** Mis-aligned memory read: Address: 0x08000F84, NumBytes: 60, Alignment: 2 (Halfword-aligned) -- Read from C cache (60 bytes @ 0x08000F84) - Data: AA F8 00 30 3A 80 31 80 28 80 BD E8 FE 8F 00 00 ...  returns 0x3C (0000ms, 0347ms total)
T10AC 009:564 JLINK_ReadMemEx(0x08000FC0, 0x003C Bytes, ..., AccessWidth = 33554432)Mis-aligned memory read: Address: 0x08000FC0, NumBytes: 60, Alignment: 2 (Halfword-aligned)
  ***** Mis-aligned memory read: Address: 0x08000FC0, NumBytes: 60, Alignment: 2 (Halfword-aligned) -- CPU_ReadMem(64 bytes @ 0x08000FC0) -- Updating C cache (64 bytes @ 0x08000FC0) -- Read from C cache (60 bytes @ 0x08000FC0) - Data: C1 F9 0E 48 03 F0 3D F8 00 20 8D F8 00 00 0B 4A ...  returns 0x3C (0000ms, 0347ms total)
T10AC 009:564 JLINK_ReadMemEx(0x08000FFC, 0x0004 Bytes, ..., AccessWidth = 33554432)Mis-aligned memory read: Address: 0x08000FFC, NumBytes: 4, Alignment: 2 (Halfword-aligned)
  ***** Mis-aligned memory read: Address: 0x08000FFC, NumBytes: 4, Alignment: 2 (Halfword-aligned) -- Read from C cache (4 bytes @ 0x08000FFC) - Data: 48 0A 00 20  returns 0x04 (0000ms, 0347ms total)
T10AC 009:564 JLINK_ReadMemEx(0x08001000, 0x0038 Bytes, ..., AccessWidth = 33554432)Mis-aligned memory read: Address: 0x08001000, NumBytes: 56, Alignment: 2 (Halfword-aligned)
  ***** Mis-aligned memory read: Address: 0x08001000, NumBytes: 56, Alignment: 2 (Halfword-aligned) -- CPU_ReadMem(64 bytes @ 0x08001000) -- Updating C cache (64 bytes @ 0x08001000) -- Read from C cache (56 bytes @ 0x08001000) - Data: FE E7 00 00 00 B5 8B B0 68 46 00 F0 4F F8 69 46 ...  returns 0x38 (0001ms, 0348ms total)
T10AC 009:565 JLINK_ReadMemEx(0x08001038, 0x003C Bytes, ..., AccessWidth = 33554432)Mis-aligned memory read: Address: 0x08001038, NumBytes: 60, Alignment: 2 (Halfword-aligned)
  ***** Mis-aligned memory read: Address: 0x08001038, NumBytes: 60, Alignment: 2 (Halfword-aligned) -- CPU_ReadMem(64 bytes @ 0x08001040) -- Updating C cache (64 bytes @ 0x08001040) -- Read from C cache (60 bytes @ 0x08001038) - Data: 0A 46 01 46 01 48 00 F0 6F B8 00 00 EC 0C 00 20 ...  returns 0x3C (0000ms, 0348ms total)
T71DC 014:358 JLINK_ReadMemEx(0x08001048, 0x0002 Bytes, ..., AccessWidth = 33554432)Mis-aligned memory read: Address: 0x08001048, NumBytes: 2, Alignment: 2 (Halfword-aligned)
  ***** Mis-aligned memory read: Address: 0x08001048, NumBytes: 2, Alignment: 2 (Halfword-aligned) -- Read from C cache (2 bytes @ 0x08001048) - Data: 02 48  returns 0x02 (0008ms, 0356ms total)
T71DC 014:366 JLINK_SetBPEx(Addr = 0x08004798, Type = 0xFFFFFFF2)  returns 0x00000008 (0000ms, 0356ms total)
T71DC 014:366 JLINK_Go() -- CPU_WriteMem(4 bytes @ 0xE0002000) -- CPU_WriteMem(4 bytes @ 0xE000200C) -- CPU_WriteMem(4 bytes @ 0xE0002010) (0001ms, 0357ms total)
T71DC 014:468 JLINK_IsHalted()  returns FALSE (0000ms, 0357ms total)
T71DC 014:568 JLINK_IsHalted()  returns FALSE (0000ms, 0357ms total)
T71DC 014:669 JLINK_IsHalted()  returns FALSE (0000ms, 0357ms total)
T71DC 014:770 JLINK_IsHalted()  returns FALSE (0000ms, 0357ms total)
T71DC 014:871 JLINK_IsHalted()  returns FALSE (0000ms, 0357ms total)
T71DC 014:971 JLINK_ReadMemU32(0xE0001004, 0x0001 Items, ...) -- CPU is running -- CPU_ReadMem(4 bytes @ 0xE0001004) - Data: FA A8 0D 06  returns 0x01 (0001ms, 0358ms total)
T10AC 014:973 JLINK_ReadMemEx(0x20000310, 0x0002 Bytes, ..., AccessWidth = 33554432)Mis-aligned memory read: Address: 0x20000310, NumBytes: 2, Alignment: 2 (Halfword-aligned)
  ***** Mis-aligned memory read: Address: 0x20000310, NumBytes: 2, Alignment: 2 (Halfword-aligned) -- CPU is running -- CPU_ReadMem(2 bytes @ 0x20000310) - Data: 48 F4  returns 0x02 (0001ms, 0359ms total)
T10AC 014:974 JLINK_ReadMemEx(0x2000039C, 0x0001 Bytes, ..., AccessWidth = 33554432)Mis-aligned memory read: Address: 0x2000039C, NumBytes: 1, Alignment: 2 (Halfword-aligned)
  ***** Mis-aligned memory read: Address: 0x2000039C, NumBytes: 1, Alignment: 2 (Halfword-aligned) -- CPU is running -- CPU_ReadMem(1 bytes @ 0x2000039C) - Data: 00  returns 0x01 (0000ms, 0359ms total)
T10AC 014:976 JLINK_ReadMemEx(0x20000310, 0x0002 Bytes, ..., AccessWidth = 33554432)Mis-aligned memory read: Address: 0x20000310, NumBytes: 2, Alignment: 2 (Halfword-aligned)
  ***** Mis-aligned memory read: Address: 0x20000310, NumBytes: 2, Alignment: 2 (Halfword-aligned) -- CPU is running -- CPU_ReadMem(2 bytes @ 0x20000310) - Data: 48 F4  returns 0x02 (0000ms, 0359ms total)
T71DC 014:976 JLINK_IsHalted()  returns FALSE (0001ms, 0360ms total)
T71DC 015:078 JLINK_IsHalted()  returns FALSE (0000ms, 0359ms total)
T71DC 015:179 JLINK_IsHalted()  returns FALSE (0000ms, 0359ms total)
T71DC 015:280 JLINK_IsHalted()  returns FALSE (0000ms, 0359ms total)
T71DC 015:381 JLINK_IsHalted()  returns FALSE (0000ms, 0359ms total)
T71DC 015:481 JLINK_ReadMemU32(0xE0001004, 0x0001 Items, ...) -- CPU is running -- CPU_ReadMem(4 bytes @ 0xE0001004) - Data: 5B 06 29 0B  returns 0x01 (0000ms, 0359ms total)
T10AC 015:482 JLINK_ReadMemEx(0x20000310, 0x0002 Bytes, ..., AccessWidth = 33554432)Mis-aligned memory read: Address: 0x20000310, NumBytes: 2, Alignment: 2 (Halfword-aligned)
  ***** Mis-aligned memory read: Address: 0x20000310, NumBytes: 2, Alignment: 2 (Halfword-aligned) -- CPU is running -- CPU_ReadMem(2 bytes @ 0x20000310) - Data: 48 F4  returns 0x02 (0001ms, 0360ms total)
T10AC 015:483 JLINK_ReadMemEx(0x2000039C, 0x0001 Bytes, ..., AccessWidth = 33554432)Mis-aligned memory read: Address: 0x2000039C, NumBytes: 1, Alignment: 2 (Halfword-aligned)
  ***** Mis-aligned memory read: Address: 0x2000039C, NumBytes: 1, Alignment: 2 (Halfword-aligned) -- CPU is running -- CPU_ReadMem(1 bytes @ 0x2000039C) - Data: 00  returns 0x01 (0000ms, 0360ms total)
T10AC 015:486 JLINK_ReadMemEx(0x20000310, 0x0002 Bytes, ..., AccessWidth = 33554432)Mis-aligned memory read: Address: 0x20000310, NumBytes: 2, Alignment: 2 (Halfword-aligned)
  ***** Mis-aligned memory read: Address: 0x20000310, NumBytes: 2, Alignment: 2 (Halfword-aligned) -- CPU is running -- CPU_ReadMem(2 bytes @ 0x20000310) - Data: 48 F4  returns 0x02 (0000ms, 0360ms total)
T71DC 015:486 JLINK_IsHalted()  returns FALSE (0000ms, 0360ms total)
T71DC 015:587 JLINK_IsHalted()  returns FALSE (0000ms, 0360ms total)
T71DC 015:688 JLINK_IsHalted()  returns FALSE (0000ms, 0360ms total)
T71DC 015:789 JLINK_IsHalted()  returns FALSE (0000ms, 0360ms total)
T71DC 015:890 JLINK_IsHalted()  returns FALSE (0000ms, 0360ms total)
T71DC 015:991 JLINK_IsHalted()  returns FALSE (0000ms, 0360ms total)
T71DC 016:092 JLINK_ReadMemU32(0xE0001004, 0x0001 Items, ...) -- CPU is running -- CPU_ReadMem(4 bytes @ 0xE0001004) - Data: 4B 50 46 11  returns 0x01 (0000ms, 0360ms total)
T10AC 016:093 JLINK_ReadMemEx(0x20000310, 0x0002 Bytes, ..., AccessWidth = 33554432)Mis-aligned memory read: Address: 0x20000310, NumBytes: 2, Alignment: 2 (Halfword-aligned)
  ***** Mis-aligned memory read: Address: 0x20000310, NumBytes: 2, Alignment: 2 (Halfword-aligned) -- CPU is running -- CPU_ReadMem(2 bytes @ 0x20000310) - Data: 48 F4  returns 0x02 (0001ms, 0361ms total)
T10AC 016:094 JLINK_ReadMemEx(0x2000039C, 0x0001 Bytes, ..., AccessWidth = 33554432)Mis-aligned memory read: Address: 0x2000039C, NumBytes: 1, Alignment: 2 (Halfword-aligned)
  ***** Mis-aligned memory read: Address: 0x2000039C, NumBytes: 1, Alignment: 2 (Halfword-aligned) -- CPU is running -- CPU_ReadMem(1 bytes @ 0x2000039C) - Data: 00  returns 0x01 (0001ms, 0362ms total)
T10AC 016:097 JLINK_ReadMemEx(0x20000310, 0x0002 Bytes, ..., AccessWidth = 33554432)Mis-aligned memory read: Address: 0x20000310, NumBytes: 2, Alignment: 2 (Halfword-aligned)
  ***** Mis-aligned memory read: Address: 0x20000310, NumBytes: 2, Alignment: 2 (Halfword-aligned) -- CPU is running -- CPU_ReadMem(2 bytes @ 0x20000310) - Data: 48 F4  returns 0x02 (0000ms, 0362ms total)
T71DC 016:098 JLINK_IsHalted()  returns FALSE (0000ms, 0362ms total)
T71DC 016:198 JLINK_IsHalted()  returns FALSE (0000ms, 0362ms total)
T71DC 016:299 JLINK_IsHalted()  returns FALSE (0000ms, 0362ms total)
T71DC 016:400 JLINK_IsHalted()  returns FALSE (0000ms, 0362ms total)
T71DC 016:501 JLINK_IsHalted()  returns FALSE (0000ms, 0362ms total)
T71DC 016:602 JLINK_ReadMemU32(0xE0001004, 0x0001 Items, ...) -- CPU is running -- CPU_ReadMem(4 bytes @ 0xE0001004) - Data: 2F E5 62 16  returns 0x01 (0000ms, 0362ms total)
T10AC 016:603 JLINK_ReadMemEx(0x20000310, 0x0002 Bytes, ..., AccessWidth = 33554432)Mis-aligned memory read: Address: 0x20000310, NumBytes: 2, Alignment: 2 (Halfword-aligned)
  ***** Mis-aligned memory read: Address: 0x20000310, NumBytes: 2, Alignment: 2 (Halfword-aligned) -- CPU is running -- CPU_ReadMem(2 bytes @ 0x20000310) - Data: 48 F4  returns 0x02 (0002ms, 0364ms total)
T10AC 016:605 JLINK_ReadMemEx(0x2000039C, 0x0001 Bytes, ..., AccessWidth = 33554432)Mis-aligned memory read: Address: 0x2000039C, NumBytes: 1, Alignment: 2 (Halfword-aligned)
  ***** Mis-aligned memory read: Address: 0x2000039C, NumBytes: 1, Alignment: 2 (Halfword-aligned) -- CPU is running -- CPU_ReadMem(1 bytes @ 0x2000039C) - Data: 00  returns 0x01 (0000ms, 0364ms total)
T10AC 016:607 JLINK_ReadMemEx(0x20000310, 0x0002 Bytes, ..., AccessWidth = 33554432)Mis-aligned memory read: Address: 0x20000310, NumBytes: 2, Alignment: 2 (Halfword-aligned)
  ***** Mis-aligned memory read: Address: 0x20000310, NumBytes: 2, Alignment: 2 (Halfword-aligned) -- CPU is running -- CPU_ReadMem(2 bytes @ 0x20000310) - Data: 48 F4  returns 0x02 (0000ms, 0364ms total)
T71DC 016:607 JLINK_IsHalted()  returns FALSE (0001ms, 0365ms total)
T71DC 016:708 JLINK_IsHalted()  returns FALSE (0000ms, 0364ms total)
T71DC 016:809 JLINK_IsHalted()  returns FALSE (0000ms, 0364ms total)
T71DC 016:910 JLINK_IsHalted()  returns FALSE (0000ms, 0364ms total)
T71DC 017:011 JLINK_IsHalted()  returns FALSE (0001ms, 0365ms total)
T71DC 017:113 JLINK_IsHalted()  returns FALSE (0000ms, 0364ms total)
T71DC 017:214 JLINK_ReadMemU32(0xE0001004, 0x0001 Items, ...) -- CPU is running -- CPU_ReadMem(4 bytes @ 0xE0001004) - Data: BF 13 82 1C  returns 0x01 (0000ms, 0364ms total)
T10AC 017:215 JLINK_ReadMemEx(0x20000310, 0x0002 Bytes, ..., AccessWidth = 33554432)Mis-aligned memory read: Address: 0x20000310, NumBytes: 2, Alignment: 2 (Halfword-aligned)
  ***** Mis-aligned memory read: Address: 0x20000310, NumBytes: 2, Alignment: 2 (Halfword-aligned) -- CPU is running -- CPU_ReadMem(2 bytes @ 0x20000310) - Data: 48 F4  returns 0x02 (0001ms, 0365ms total)
T10AC 017:216 JLINK_ReadMemEx(0x2000039C, 0x0001 Bytes, ..., AccessWidth = 33554432)Mis-aligned memory read: Address: 0x2000039C, NumBytes: 1, Alignment: 2 (Halfword-aligned)
  ***** Mis-aligned memory read: Address: 0x2000039C, NumBytes: 1, Alignment: 2 (Halfword-aligned) -- CPU is running -- CPU_ReadMem(1 bytes @ 0x2000039C) - Data: 00  returns 0x01 (0000ms, 0365ms total)
T10AC 017:218 JLINK_ReadMemEx(0x20000310, 0x0002 Bytes, ..., AccessWidth = 33554432)Mis-aligned memory read: Address: 0x20000310, NumBytes: 2, Alignment: 2 (Halfword-aligned)
  ***** Mis-aligned memory read: Address: 0x20000310, NumBytes: 2, Alignment: 2 (Halfword-aligned) -- CPU is running -- CPU_ReadMem(2 bytes @ 0x20000310) - Data: 48 F4  returns 0x02 (0001ms, 0366ms total)
T71DC 017:219 JLINK_IsHalted()  returns FALSE (0000ms, 0366ms total)
T71DC 017:319 JLINK_IsHalted()  returns FALSE (0000ms, 0366ms total)
T71DC 017:420 JLINK_IsHalted()  returns FALSE (0000ms, 0366ms total)
T71DC 017:521 JLINK_IsHalted()  returns FALSE (0001ms, 0367ms total)
T71DC 017:622 JLINK_IsHalted()  returns FALSE (0001ms, 0367ms total)
T71DC 017:723 JLINK_IsHalted()  returns FALSE (0000ms, 0366ms total)
T71DC 017:824 JLINK_ReadMemU32(0xE0001004, 0x0001 Items, ...) -- CPU is running -- CPU_ReadMem(4 bytes @ 0xE0001004) - Data: CE CD 9F 22  returns 0x01 (0000ms, 0366ms total)
T10AC 017:826 JLINK_ReadMemEx(0x20000310, 0x0002 Bytes, ..., AccessWidth = 33554432)Mis-aligned memory read: Address: 0x20000310, NumBytes: 2, Alignment: 2 (Halfword-aligned)
  ***** Mis-aligned memory read: Address: 0x20000310, NumBytes: 2, Alignment: 2 (Halfword-aligned) -- CPU is running -- CPU_ReadMem(2 bytes @ 0x20000310) - Data: 48 F4  returns 0x02 (0000ms, 0366ms total)
T10AC 017:826 JLINK_ReadMemEx(0x2000039C, 0x0001 Bytes, ..., AccessWidth = 33554432)Mis-aligned memory read: Address: 0x2000039C, NumBytes: 1, Alignment: 2 (Halfword-aligned)
  ***** Mis-aligned memory read: Address: 0x2000039C, NumBytes: 1, Alignment: 2 (Halfword-aligned) -- CPU is running -- CPU_ReadMem(1 bytes @ 0x2000039C) - Data: 00  returns 0x01 (0000ms, 0366ms total)
T10AC 017:828 JLINK_ReadMemEx(0x20000310, 0x0002 Bytes, ..., AccessWidth = 33554432)Mis-aligned memory read: Address: 0x20000310, NumBytes: 2, Alignment: 2 (Halfword-aligned)
  ***** Mis-aligned memory read: Address: 0x20000310, NumBytes: 2, Alignment: 2 (Halfword-aligned) -- CPU is running -- CPU_ReadMem(2 bytes @ 0x20000310) - Data: 48 F4  returns 0x02 (0001ms, 0367ms total)
T71DC 017:829 JLINK_IsHalted()  returns FALSE (0000ms, 0367ms total)
T71DC 017:930 JLINK_IsHalted()  returns FALSE (0000ms, 0367ms total)
T71DC 018:031 JLINK_IsHalted()  returns FALSE (0000ms, 0367ms total)
T71DC 018:132 JLINK_IsHalted()  returns FALSE (0000ms, 0367ms total)
T71DC 018:232 JLINK_IsHalted()  returns FALSE (0000ms, 0367ms total)
T71DC 018:333 JLINK_IsHalted()  returns FALSE (0000ms, 0367ms total)
T71DC 018:433 JLINK_ReadMemU32(0xE0001004, 0x0001 Items, ...) -- CPU is running -- CPU_ReadMem(4 bytes @ 0xE0001004) - Data: 78 74 B8 28  returns 0x01 (0000ms, 0367ms total)
T10AC 018:435 JLINK_ReadMemEx(0x20000310, 0x0002 Bytes, ..., AccessWidth = 33554432)Mis-aligned memory read: Address: 0x20000310, NumBytes: 2, Alignment: 2 (Halfword-aligned)
  ***** Mis-aligned memory read: Address: 0x20000310, NumBytes: 2, Alignment: 2 (Halfword-aligned) -- CPU is running -- CPU_ReadMem(2 bytes @ 0x20000310) - Data: 48 F4  returns 0x02 (0000ms, 0367ms total)
T10AC 018:435 JLINK_ReadMemEx(0x2000039C, 0x0001 Bytes, ..., AccessWidth = 33554432)Mis-aligned memory read: Address: 0x2000039C, NumBytes: 1, Alignment: 2 (Halfword-aligned)
  ***** Mis-aligned memory read: Address: 0x2000039C, NumBytes: 1, Alignment: 2 (Halfword-aligned) -- CPU is running -- CPU_ReadMem(1 bytes @ 0x2000039C) - Data: 00  returns 0x01 (0001ms, 0368ms total)
T10AC 018:438 JLINK_ReadMemEx(0x20000310, 0x0002 Bytes, ..., AccessWidth = 33554432)Mis-aligned memory read: Address: 0x20000310, NumBytes: 2, Alignment: 2 (Halfword-aligned)
  ***** Mis-aligned memory read: Address: 0x20000310, NumBytes: 2, Alignment: 2 (Halfword-aligned) -- CPU is running -- CPU_ReadMem(2 bytes @ 0x20000310) - Data: 48 F4  returns 0x02 (0001ms, 0369ms total)
T71DC 018:439 JLINK_IsHalted()  returns FALSE (0000ms, 0369ms total)
T71DC 018:540 JLINK_IsHalted()  returns FALSE (0000ms, 0369ms total)
T71DC 018:641 JLINK_IsHalted()  returns FALSE (0000ms, 0369ms total)
T71DC 018:742 JLINK_IsHalted()  returns FALSE (0000ms, 0369ms total)
T71DC 018:843 JLINK_IsHalted()  returns FALSE (0000ms, 0369ms total)
T71DC 018:944 JLINK_IsHalted()  returns FALSE (0000ms, 0369ms total)
T71DC 019:045 JLINK_ReadMemU32(0xE0001004, 0x0001 Items, ...) -- CPU is running -- CPU_ReadMem(4 bytes @ 0xE0001004) - Data: 2A 23 D9 2E  returns 0x01 (0000ms, 0369ms total)
T10AC 019:047 JLINK_ReadMemEx(0x20000310, 0x0002 Bytes, ..., AccessWidth = 33554432)Mis-aligned memory read: Address: 0x20000310, NumBytes: 2, Alignment: 2 (Halfword-aligned)
  ***** Mis-aligned memory read: Address: 0x20000310, NumBytes: 2, Alignment: 2 (Halfword-aligned) -- CPU is running -- CPU_ReadMem(2 bytes @ 0x20000310) - Data: 48 F4  returns 0x02 (0000ms, 0369ms total)
T10AC 019:047 JLINK_ReadMemEx(0x2000039C, 0x0001 Bytes, ..., AccessWidth = 33554432)Mis-aligned memory read: Address: 0x2000039C, NumBytes: 1, Alignment: 2 (Halfword-aligned)
  ***** Mis-aligned memory read: Address: 0x2000039C, NumBytes: 1, Alignment: 2 (Halfword-aligned) -- CPU is running -- CPU_ReadMem(1 bytes @ 0x2000039C) - Data: 00  returns 0x01 (0000ms, 0369ms total)
T10AC 019:050 JLINK_ReadMemEx(0x20000310, 0x0002 Bytes, ..., AccessWidth = 33554432)Mis-aligned memory read: Address: 0x20000310, NumBytes: 2, Alignment: 2 (Halfword-aligned)
  ***** Mis-aligned memory read: Address: 0x20000310, NumBytes: 2, Alignment: 2 (Halfword-aligned) -- CPU is running -- CPU_ReadMem(2 bytes @ 0x20000310) - Data: 48 F4  returns 0x02 (0000ms, 0369ms total)
T71DC 019:050 JLINK_IsHalted()  returns FALSE (0000ms, 0369ms total)
T71DC 019:151 JLINK_IsHalted()  returns FALSE (0000ms, 0369ms total)
T71DC 019:252 JLINK_IsHalted()  returns FALSE (0000ms, 0369ms total)
T71DC 019:353 JLINK_IsHalted()  returns FALSE (0000ms, 0369ms total)
T71DC 019:454 JLINK_IsHalted()  returns FALSE (0001ms, 0370ms total)
T71DC 019:555 JLINK_IsHalted()  returns FALSE (0000ms, 0369ms total)
